T70B4 552:958 SEGGER J-Link V6.32i Log File (0000ms, 0946ms total)
T70B4 552:958 DLL Compiled: Jul 24 2018 15:19:55 (0000ms, 0946ms total)
T70B4 552:958 Logging started @ 2020-03-06 16:52 (0000ms, 0946ms total)
T70B4 552:958 JLINK_SetWarnOutHandler(...) (0000ms, 0946ms total)
T70B4 552:958 JLINK_OpenEx(...)
Firmware: J-Link V9 compiled Apr 20 2018 16:47:26
Hardware: V9.30
S/N: 59300616
Feature(s): RDI, FlashBP, FlashDL, JFlash, GDB
TELNET listener socket opened on port 19021WEBSRV 
Starting webserver (0026ms, 0972ms total)
T70B4 552:958 WEBSRV Webserver running on local port 19080 (0026ms, 0972ms total)
T70B4 552:958   returns O.K. (0026ms, 0972ms total)
T70B4 552:984 JLINK_GetEmuCaps()  returns 0xB9FF7BBF (0000ms, 0972ms total)
T70B4 552:985 JLINK_TIF_GetAvailable(...) (0000ms, 0972ms total)
T70B4 552:985 JLINK_SetErrorOutHandler(...) (0000ms, 0972ms total)
T70B4 552:985 JLINK_ExecCommand("ProjectFile = "D:\GitHub\stm32f407_progect\MDK-ARM\JLinkSettings.ini"", ...).   returns 0x00 (0003ms, 0975ms total)
T70B4 552:988 JLINK_ExecCommand("Device = STM32F407VETx", ...). Device "STM32F407VE" selected.  returns 0x00 (0001ms, 0976ms total)
T70B4 552:989 JLINK_ExecCommand("DisableConnectionTimeout", ...).   returns 0x01 (0000ms, 0976ms total)
T70B4 552:989 JLINK_GetHardwareVersion()  returns 0x16B48 (0000ms, 0976ms total)
T70B4 552:989 JLINK_GetDLLVersion()  returns 63209 (0000ms, 0976ms total)
T70B4 552:989 JLINK_GetFirmwareString(...) (0000ms, 0976ms total)
T70B4 552:989 JLINK_GetDLLVersion()  returns 63209 (0000ms, 0976ms total)
T70B4 552:989 JLINK_GetCompileDateTime() (0000ms, 0976ms total)
T70B4 552:989 JLINK_GetFirmwareString(...) (0000ms, 0976ms total)
T70B4 552:989 JLINK_GetHardwareVersion()  returns 0x16B48 (0000ms, 0976ms total)
T70B4 552:989 JLINK_TIF_Select(JLINKARM_TIF_SWD)  returns 0x00 (0002ms, 0978ms total)
T70B4 552:991 JLINK_SetSpeed(500) (0000ms, 0978ms total)
T70B4 552:992 JLINK_GetId() >0x10B TIF>Found SW-DP with ID 0x2BA01477 >0x0D TIF> >0x28 TIF> >0x0D TIF> >0x28 TIF> >0x0D TIF> >0x28 TIF> >0x0D TIF> >0x28 TIF> >0x0D TIF> >0x21 TIF> >0x0D TIF> >0x28 TIF> >0x0D TIF> >0x28 TIF> >0x0D TIF> >0x28 TIF> >0x0D TIF> >0x21 TIF> >0x0D TIF> >0x21 TIF> >0x0D TIF> >0x28 TIF> >0x0D TIF> >0x21 TIF> >0x0D TIF> >0x21 TIF> >0x0D TIF> >0x28 TIF> >0x0D TIF> >0x21 TIF> >0x0D TIF> >0x21 TIF> >0x0D TIF> >0x28 TIF> >0x0D TIF> >0x21 TIF> >0x0D TIF> >0x21 TIF> >0x0D TIF> >0x28 TIF>
 >0x0D TIF> >0x21 TIF> >0x0D TIF> >0x21 TIF> >0x0D TIF> >0x28 TIF> >0x0D TIF> >0x21 TIF> >0x0D TIF> >0x21 TIF> >0x10B TIF>Found SW-DP with ID 0x2BA01477 >0x0D TIF> >0x28 TIF> >0x0D TIF> >0x28 TIF> >0x0D TIF> >0x28 TIF> >0x0D TIF> >0x28 TIF> >0x0D TIF> >0x21 TIF> >0x0D TIF> >0x28 TIF>Scanning AP map to find all available APs >0x0D TIF> >0x28 TIF> >0x0D TIF> >0x21 TIF> >0x0D TIF> >0x21 TIF> >0x0D TIF> >0x28 TIF> >0x0D TIF> >0x21 TIF> >0x0D TIF> >0x21 TIF>
AP[1]: Stopped AP scan as end of AP map has been reachedAP[0]: AHB-AP (IDR: 0x24770011)Iterating through AP map to find AHB-AP to use >0x42 TIF> >0x28 TIF> >0x0D TIF> >0x28 TIF> >0x0D TIF> >0x21 TIF> >0x0D TIF> >0x21 TIF> >0x42 TIF> >0x28 TIF> >0x0D TIF> >0x28 TIF> >0x0D TIF> >0x28 TIF> >0x0D TIF> >0x21 TIF> >0x0D TIF> >0x21 TIF>AP[0]: Core foundAP[0]: AHB-AP ROM base: 0xE00FF000 >0x0D TIF> >0x28 TIF> >0x0D TIF> >0x28 TIF> >0x0D TIF> >0x28 TIF> >0x0D TIF> >0x21 TIF> >0x0D TIF> >0x21 TIF>
CPUID register: 0x410FC241. Implementer code: 0x41 (ARM)Found Cortex-M4 r0p1, Little endian. -- Max. mem block: 0x00010F28 -- CPU_ReadMem(4 bytes @ 0xE000EDF0) -- CPU_WriteMem(4 bytes @ 0xE000EDF0) -- CPU_ReadMem(4 bytes @ 0xE0002000)FPUnit: 6 code (BP) slots and 2 literal slots -- CPU_ReadMem(4 bytes @ 0xE000EDFC) -- CPU_WriteMem(4 bytes @ 0xE000EDFC) -- CPU_ReadMem(4 bytes @ 0xE0001000) -- CPU_WriteMem(4 bytes @ 0xE0001000) -- CPU_ReadMem(4 bytes @ 0xE000ED88) -- CPU_WriteMem(4 bytes @ 0xE000ED88)
 -- CPU_ReadMem(4 bytes @ 0xE000ED88) -- CPU_WriteMem(4 bytes @ 0xE000ED88)CoreSight components:ROMTbl[0] @ E00FF000 -- CPU_ReadMem(16 bytes @ 0xE00FF000) -- CPU_ReadMem(16 bytes @ 0xE000EFF0) -- CPU_ReadMem(16 bytes @ 0xE000EFE0)ROMTbl[0][0]: E000E000, CID: B105E00D, PID: 000BB00C SCS-M7 -- CPU_ReadMem(16 bytes @ 0xE0001FF0) -- CPU_ReadMem(16 bytes @ 0xE0001FE0)ROMTbl[0][1]: E0001000, CID: B105E00D, PID: 003BB002 DWT -- CPU_ReadMem(16 bytes @ 0xE0002FF0) -- CPU_ReadMem(16 bytes @ 0xE0002FE0)
ROMTbl[0][2]: E0002000, CID: B105E00D, PID: 002BB003 FPB -- CPU_ReadMem(16 bytes @ 0xE0000FF0) -- CPU_ReadMem(16 bytes @ 0xE0000FE0)ROMTbl[0][3]: E0000000, CID: B105E00D, PID: 003BB001 ITM -- CPU_ReadMem(16 bytes @ 0xE00FF010) -- CPU_ReadMem(16 bytes @ 0xE0040FF0) -- CPU_ReadMem(16 bytes @ 0xE0040FE0)ROMTbl[0][4]: E0040000, CID: B105900D, PID: 000BB9A1 TPIU -- CPU_ReadMem(16 bytes @ 0xE0041FF0) -- CPU_ReadMem(16 bytes @ 0xE0041FE0)ROMTbl[0][5]: E0041000, CID: B105900D, PID: 000BB925 ETM >0x0D TIF>
 >0x21 TIF>  returns 0x2BA01477 (0210ms, 1188ms total)
T70B4 553:202 JLINK_GetDLLVersion()  returns 63209 (0000ms, 1188ms total)
T70B4 553:202 JLINK_CORE_GetFound()  returns 0xE0000FF (0000ms, 1188ms total)
T70B4 553:202 JLINK_GetDebugInfo(0x100 = JLINKARM_ROM_TABLE_ADDR_INDEX) -- Value=0xE00FF000  returns 0x00 (0000ms, 1188ms total)
T70B4 553:203 JLINK_GetDebugInfo(0x100 = JLINKARM_ROM_TABLE_ADDR_INDEX) -- Value=0xE00FF000  returns 0x00 (0000ms, 1188ms total)
T70B4 553:203 JLINK_GetDebugInfo(0x101 = JLINKARM_DEBUG_INFO_ETM_ADDR_INDEX) -- Value=0xE0041000  returns 0x00 (0000ms, 1188ms total)
T70B4 553:203 JLINK_ReadMemEx(0xE0041FD0, 0x0020 Bytes, ..., Flags = 0x02000004) -- CPU_ReadMem(32 bytes @ 0xE0041FD0) - Data: 04 00 00 00 00 00 00 00 00 00 00 00 00 00 00 00 ...  returns 0x20 (0002ms, 1190ms total)
T70B4 553:205 JLINK_GetDebugInfo(0x102 = JLINKARM_DEBUG_INFO_MTB_ADDR_INDEX) -- Value=0x00000000  returns 0x00 (0000ms, 1190ms total)
T70B4 553:205 JLINK_GetDebugInfo(0x103 = JLINKARM_DEBUG_INFO_TPIU_ADDR_INDEX) -- Value=0xE0040000  returns 0x00 (0000ms, 1190ms total)
T70B4 553:205 JLINK_GetDebugInfo(0x104 = JLINKARM_DEBUG_INFO_ITM_ADDR_INDEX) -- Value=0xE0000000  returns 0x00 (0000ms, 1190ms total)
T70B4 553:205 JLINK_GetDebugInfo(0x105 = JLINKARM_DEBUG_INFO_DWT_ADDR_INDEX) -- Value=0xE0001000  returns 0x00 (0000ms, 1190ms total)
T70B4 553:205 JLINK_GetDebugInfo(0x106 = JLINKARM_DEBUG_INFO_FPB_ADDR_INDEX) -- Value=0xE0002000  returns 0x00 (0000ms, 1190ms total)
T70B4 553:205 JLINK_GetDebugInfo(0x107 = JLINKARM_DEBUG_INFO_NVIC_ADDR_INDEX) -- Value=0xE000E000  returns 0x00 (0000ms, 1190ms total)
T70B4 553:205 JLINK_GetDebugInfo(0x10C = JLINKARM_DEBUG_INFO_DBG_ADDR_INDEX) -- Value=0xE000EDF0  returns 0x00 (0000ms, 1190ms total)
T70B4 553:205 JLINK_GetDebugInfo(0x01 = Unknown) -- Value=0x00000001  returns 0x00 (0000ms, 1190ms total)
T70B4 553:205 JLINK_ReadMemU32(0xE000ED00, 0x0001 Items, ...) -- CPU_ReadMem(4 bytes @ 0xE000ED00) - Data: 41 C2 0F 41  returns 0x01 (0002ms, 1192ms total)
T70B4 553:207 JLINK_GetDebugInfo(0x10F = JLINKARM_DEBUG_INFO_HAS_CORTEX_M_SECURITY_EXT_INDEX) -- Value=0x00000000  returns 0x00 (0000ms, 1192ms total)
T70B4 553:207 JLINK_SetResetType(JLINKARM_CM3_RESET_TYPE_NORMAL)  returns JLINKARM_CM3_RESET_TYPE_NORMAL (0000ms, 1192ms total)
T70B4 553:207 JLINK_Reset() -- CPU is running -- CPU_WriteMem(4 bytes @ 0xE000EDF0) -- CPU is running -- CPU_WriteMem(4 bytes @ 0xE000EDFC)Reset: Halt core after reset via DEMCR.VC_CORERESET. >0x35 TIF>Reset: Reset device via AIRCR.SYSRESETREQ. -- CPU is running -- CPU_WriteMem(4 bytes @ 0xE000ED0C) >0x0D TIF> >0x28 TIF> -- CPU_ReadMem(4 bytes @ 0xE000EDF0) -- CPU_ReadMem(4 bytes @ 0xE000EDF0) -- CPU is running -- CPU_WriteMem(4 bytes @ 0xE000EDF0) -- CPU is running -- CPU_WriteMem(4 bytes @ 0xE000EDFC)
 -- CPU_ReadMem(4 bytes @ 0xE000EDF0) -- CPU_WriteMem(4 bytes @ 0xE0002000) -- CPU_ReadMem(4 bytes @ 0xE000EDFC) -- CPU_ReadMem(4 bytes @ 0xE0001000) (0100ms, 1292ms total)
T70B4 553:308 JLINK_ReadReg(R15 (PC))  returns 0x0800019C (0000ms, 1292ms total)
T70B4 553:308 JLINK_ReadReg(XPSR)  returns 0x01000000 (0000ms, 1292ms total)
T70B4 553:308 JLINK_Halt()  returns 0x00 (0000ms, 1292ms total)
T70B4 553:308 JLINK_ReadMemU32(0xE000EDF0, 0x0001 Items, ...) -- CPU_ReadMem(4 bytes @ 0xE000EDF0) - Data: 03 00 03 00  returns 0x01 (0002ms, 1294ms total)
T70B4 553:310 JLINK_WriteU32(0xE000EDF0, 0xA05F0003) -- CPU_WriteMem(4 bytes @ 0xE000EDF0)  returns 0x00 (0000ms, 1294ms total)
T70B4 553:310 JLINK_WriteU32(0xE000EDFC, 0x01000000) -- CPU_WriteMem(4 bytes @ 0xE000EDFC)  returns 0x00 (0002ms, 1296ms total)
T70B4 553:312 JLINK_GetHWStatus(...)  returns 0x00 (0000ms, 1296ms total)
T70B4 553:312 JLINK_GetNumBPUnits(Type = 0xFFFFFF00)  returns 0x06 (0000ms, 1296ms total)
T70B4 553:312 JLINK_GetNumBPUnits(Type = 0xF0)  returns 0x2000 (0000ms, 1296ms total)
T70B4 553:312 JLINK_GetNumWPUnits()  returns 0x04 (0000ms, 1296ms total)
T70B4 553:312 JLINK_GetSpeed()  returns 0x1F4 (0000ms, 1296ms total)
T70B4 553:312 JLINK_ReadMemU32(0xE000E004, 0x0001 Items, ...) -- CPU_ReadMem(4 bytes @ 0xE000E004) - Data: 02 00 00 00  returns 0x01 (0002ms, 1298ms total)
T70B4 553:314 JLINK_ReadMemU32(0xE000E004, 0x0001 Items, ...) -- CPU_ReadMem(4 bytes @ 0xE000E004) - Data: 02 00 00 00  returns 0x01 (0002ms, 1300ms total)
T70B4 553:316 JLINK_WriteMemEx(0xE0001000, 0x001C Bytes, ..., Flags = 0x02000004) - Data: 01 00 00 00 00 00 00 00 00 00 00 00 00 00 00 00 ... -- CPU_WriteMem(28 bytes @ 0xE0001000)  returns 0x1C (0002ms, 1302ms total)
T70B4 553:318 JLINK_ReadReg(R15 (PC))  returns 0x0800019C (0000ms, 1302ms total)
T70B4 553:318 JLINK_ReadReg(XPSR)  returns 0x01000000 (0000ms, 1302ms total)
T70B4 553:342 JLINK_ReadMemEx(0xE0001004, 0x0004 Bytes, ..., Flags = 0x02000000) - Data: 00 00 00 00  returns 0x04 (0000ms, 1302ms total)
T70B4 553:439 JLINK_SetResetType(JLINKARM_CM3_RESET_TYPE_NORMAL)  returns JLINKARM_CM3_RESET_TYPE_NORMAL (0000ms, 1302ms total)
T70B4 553:439 JLINK_Reset() -- CPU_WriteMem(4 bytes @ 0xE000EDF0) -- CPU_WriteMem(4 bytes @ 0xE000EDFC)Reset: Halt core after reset via DEMCR.VC_CORERESET. >0x35 TIF>Reset: Reset device via AIRCR.SYSRESETREQ. -- CPU_WriteMem(4 bytes @ 0xE000ED0C) >0x0D TIF> >0x28 TIF> -- CPU_ReadMem(4 bytes @ 0xE000EDF0) -- CPU_ReadMem(4 bytes @ 0xE000EDF0) -- CPU_WriteMem(4 bytes @ 0xE000EDF0) -- CPU_WriteMem(4 bytes @ 0xE000EDFC) -- CPU_ReadMem(4 bytes @ 0xE000EDF0) -- CPU_WriteMem(4 bytes @ 0xE0002000)
 -- CPU_ReadMem(4 bytes @ 0xE000EDFC) -- CPU_ReadMem(4 bytes @ 0xE0001000) (0100ms, 1402ms total)
T70B4 553:539 JLINK_ReadReg(R15 (PC))  returns 0x0800019C (0000ms, 1402ms total)
T70B4 553:539 JLINK_ReadReg(XPSR)  returns 0x01000000 (0000ms, 1402ms total)
T70B4 553:541 JLINK_ReadMemEx(0x0800019C, 0x003C Bytes, ..., Flags = 0x02000000) -- CPU_ReadMem(128 bytes @ 0x08000180) -- Updating C cache (128 bytes @ 0x08000180) -- Read from C cache (60 bytes @ 0x0800019C) - Data: 06 48 80 47 06 48 00 47 FE E7 FE E7 FE E7 FE E7 ...  returns 0x3C (0005ms, 1407ms total)
T70B4 553:814 JLINK_ReadMemEx(0x40002800, 0x0020 Bytes, ..., Flags = 0x02000004) -- CPU_ReadMem(32 bytes @ 0x40002800) - Data: 02 08 00 00 01 21 00 00 00 00 00 00 27 00 00 00 ...  returns 0x20 (0002ms, 1409ms total)
T70B4 553:817 JLINK_ReadMemEx(0x40002820, 0x0004 Bytes, ..., Flags = 0x02000004) -- CPU_ReadMem(4 bytes @ 0x40002820) - Data: 00 00 00 00  returns 0x04 (0001ms, 1410ms total)
T70B4 553:818 JLINK_ReadMemEx(0x40002828, 0x0004 Bytes, ..., Flags = 0x02000004) -- CPU_ReadMem(4 bytes @ 0x40002828) - Data: 01 00 00 00  returns 0x04 (0002ms, 1412ms total)
T70B4 553:820 JLINK_ReadMemEx(0x40002830, 0x0018 Bytes, ..., Flags = 0x02000004) -- CPU_ReadMem(24 bytes @ 0x40002830) - Data: 00 00 00 00 00 00 00 00 00 00 00 00 00 00 00 00 ...  returns 0x18 (0003ms, 1415ms total)
T70B4 553:823 JLINK_ReadMemEx(0x40002848, 0x0004 Bytes, ..., Flags = 0x02000004) -- CPU_ReadMem(4 bytes @ 0x40002848) - Data: 00 00 00 00  returns 0x04 (0001ms, 1416ms total)
T70B4 553:825 JLINK_ReadMemEx(0x40002850, 0x004C Bytes, ..., Flags = 0x02000004) -- CPU_ReadMem(76 bytes @ 0x40002850) - Data: 00 00 00 00 00 00 00 00 00 00 00 00 00 00 00 00 ...  returns 0x4C (0003ms, 1419ms total)
T70B4 553:828 JLINK_ReadMemEx(0x4000289C, 0x0004 Bytes, ..., Flags = 0x02000004) -- CPU_ReadMem(4 bytes @ 0x4000289C) - Data: 00 00 00 00  returns 0x04 (0002ms, 1421ms total)
T70B4 553:962 JLINK_ReadMemEx(0x40011000, 0x0018 Bytes, ..., Flags = 0x02000004) -- CPU_ReadMem(24 bytes @ 0x40011000) - Data: 00 00 00 00 00 00 00 00 00 00 00 00 00 00 00 00 ...  returns 0x18 (0002ms, 1423ms total)
T70B4 553:964 JLINK_ReadMemEx(0x40011018, 0x0004 Bytes, ..., Flags = 0x02000004) -- CPU_ReadMem(4 bytes @ 0x40011018) - Data: 00 00 00 00  returns 0x04 (0002ms, 1425ms total)
T4928 558:202 JLINK_ReadMemEx(0x0800019C, 0x0002 Bytes, ..., Flags = 0x02000000) -- Read from C cache (2 bytes @ 0x0800019C) - Data: 06 48  returns 0x02 (0000ms, 1425ms total)
T4928 558:202 JLINK_SetBPEx(Addr = 0x0800184C, Type = 0xFFFFFFF2)  returns 0x00000001 (0000ms, 1425ms total)
T4928 558:202 JLINK_Go() -- CPU_WriteMem(4 bytes @ 0xE0002000) -- CPU_ReadMem(4 bytes @ 0xE0001000) -- CPU_WriteMem(4 bytes @ 0xE0002008) -- CPU_WriteMem(4 bytes @ 0xE000200C) -- CPU_WriteMem(4 bytes @ 0xE0002010) -- CPU_WriteMem(4 bytes @ 0xE0002014) -- CPU_WriteMem(4 bytes @ 0xE0002018) -- CPU_WriteMem(4 bytes @ 0xE000201C) -- CPU_WriteMem(4 bytes @ 0xE0001004) (0013ms, 1438ms total)
T4928 558:316 JLINK_IsHalted()  returns TRUE (0023ms, 1461ms total)
T4928 558:339 JLINK_Halt()  returns 0x00 (0000ms, 1438ms total)
T4928 558:339 JLINK_IsHalted()  returns TRUE (0001ms, 1439ms total)
T4928 558:340 JLINK_IsHalted()  returns TRUE (0000ms, 1438ms total)
T4928 558:340 JLINK_IsHalted()  returns TRUE (0000ms, 1438ms total)
T4928 558:340 JLINK_ReadReg(R15 (PC))  returns 0x0800184C (0000ms, 1438ms total)
T4928 558:340 JLINK_ReadReg(XPSR)  returns 0x61000000 (0000ms, 1438ms total)
T4928 558:340 JLINK_ClrBPEx(BPHandle = 0x00000001)  returns 0x00 (0000ms, 1438ms total)
T4928 558:340 JLINK_ReadMemU32(0xE000ED30, 0x0001 Items, ...) -- CPU_ReadMem(4 bytes @ 0xE000ED30) - Data: 02 00 00 00  returns 0x01 (0002ms, 1440ms total)
T4928 558:342 JLINK_ReadMemU32(0xE0001028, 0x0001 Items, ...) -- CPU_ReadMem(4 bytes @ 0xE0001028) - Data: 00 00 00 00  returns 0x01 (0002ms, 1442ms total)
T4928 558:344 JLINK_ReadMemU32(0xE0001038, 0x0001 Items, ...) -- CPU_ReadMem(4 bytes @ 0xE0001038) - Data: 00 02 00 00  returns 0x01 (0001ms, 1443ms total)
T4928 558:345 JLINK_ReadMemU32(0xE0001048, 0x0001 Items, ...) -- CPU_ReadMem(4 bytes @ 0xE0001048) - Data: 00 00 00 00  returns 0x01 (0002ms, 1445ms total)
T4928 558:347 JLINK_ReadMemU32(0xE0001058, 0x0001 Items, ...) -- CPU_ReadMem(4 bytes @ 0xE0001058) - Data: 00 00 00 00  returns 0x01 (0002ms, 1447ms total)
T4928 558:349 JLINK_ReadReg(R0)  returns 0x0800184D (0000ms, 1447ms total)
T4928 558:349 JLINK_ReadReg(R1)  returns 0x200010F8 (0000ms, 1447ms total)
T4928 558:349 JLINK_ReadReg(R2)  returns 0x00000000 (0000ms, 1447ms total)
T4928 558:349 JLINK_ReadReg(R3)  returns 0x0800181B (0000ms, 1447ms total)
T4928 558:349 JLINK_ReadReg(R4)  returns 0x080018FC (0000ms, 1447ms total)
T4928 558:349 JLINK_ReadReg(R5)  returns 0x080018FC (0000ms, 1447ms total)
T4928 558:349 JLINK_ReadReg(R6)  returns 0x00000000 (0000ms, 1447ms total)
T4928 558:349 JLINK_ReadReg(R7)  returns 0x00000000 (0000ms, 1447ms total)
T4928 558:349 JLINK_ReadReg(R8)  returns 0x00000000 (0000ms, 1447ms total)
T4928 558:349 JLINK_ReadReg(R9)  returns 0x00000000 (0000ms, 1447ms total)
T4928 558:349 JLINK_ReadReg(R10)  returns 0x00000000 (0000ms, 1447ms total)
T4928 558:349 JLINK_ReadReg(R11)  returns 0x00000000 (0000ms, 1447ms total)
T4928 558:349 JLINK_ReadReg(R12)  returns 0x00000000 (0000ms, 1447ms total)
T4928 558:349 JLINK_ReadReg(R13 (SP))  returns 0x200010F8 (0000ms, 1447ms total)
T4928 558:349 JLINK_ReadReg(R14)  returns 0x080002A1 (0000ms, 1447ms total)
T4928 558:349 JLINK_ReadReg(R15 (PC))  returns 0x0800184C (0000ms, 1447ms total)
T4928 558:349 JLINK_ReadReg(XPSR)  returns 0x61000000 (0000ms, 1447ms total)
T4928 558:349 JLINK_ReadReg(MSP)  returns 0x200010F8 (0000ms, 1447ms total)
T4928 558:349 JLINK_ReadReg(PSP)  returns 0x00000000 (0000ms, 1447ms total)
T4928 558:349 JLINK_ReadReg(CFBP)  returns 0x00000000 (0000ms, 1447ms total)
T4928 558:349 JLINK_ReadReg(FPSCR)  returns 0x00000000 (0038ms, 1485ms total)
T4928 558:387 JLINK_ReadReg(FPS0)  returns 0x00000000 (0000ms, 1485ms total)
T4928 558:387 JLINK_ReadReg(FPS1)  returns 0x00000000 (0000ms, 1485ms total)
T4928 558:387 JLINK_ReadReg(FPS2)  returns 0x00000000 (0000ms, 1485ms total)
T4928 558:387 JLINK_ReadReg(FPS3)  returns 0x00000000 (0000ms, 1485ms total)
T4928 558:387 JLINK_ReadReg(FPS4)  returns 0x00000000 (0000ms, 1485ms total)
T4928 558:387 JLINK_ReadReg(FPS5)  returns 0x00000000 (0000ms, 1485ms total)
T4928 558:387 JLINK_ReadReg(FPS6)  returns 0x00000000 (0000ms, 1485ms total)
T4928 558:387 JLINK_ReadReg(FPS7)  returns 0x00000000 (0001ms, 1486ms total)
T4928 558:388 JLINK_ReadReg(FPS8)  returns 0x00000000 (0000ms, 1486ms total)
T4928 558:388 JLINK_ReadReg(FPS9)  returns 0x00000000 (0000ms, 1486ms total)
T4928 558:388 JLINK_ReadReg(FPS10)  returns 0x00000000 (0000ms, 1486ms total)
T4928 558:388 JLINK_ReadReg(FPS11)  returns 0x00000000 (0000ms, 1486ms total)
T4928 558:388 JLINK_ReadReg(FPS12)  returns 0x00000000 (0000ms, 1486ms total)
T4928 558:388 JLINK_ReadReg(FPS13)  returns 0x00000000 (0000ms, 1486ms total)
T4928 558:388 JLINK_ReadReg(FPS14)  returns 0x00000000 (0000ms, 1486ms total)
T4928 558:388 JLINK_ReadReg(FPS15)  returns 0x00000000 (0000ms, 1486ms total)
T4928 558:388 JLINK_ReadReg(FPS16)  returns 0x00000000 (0000ms, 1486ms total)
T4928 558:388 JLINK_ReadReg(FPS17)  returns 0x00000000 (0000ms, 1486ms total)
T4928 558:388 JLINK_ReadReg(FPS18)  returns 0x00000000 (0000ms, 1486ms total)
T4928 558:388 JLINK_ReadReg(FPS19)  returns 0x00000000 (0000ms, 1486ms total)
T4928 558:388 JLINK_ReadReg(FPS20)  returns 0x00000000 (0000ms, 1486ms total)
T4928 558:388 JLINK_ReadReg(FPS21)  returns 0x00000000 (0000ms, 1486ms total)
T4928 558:388 JLINK_ReadReg(FPS22)  returns 0x00000000 (0000ms, 1486ms total)
T4928 558:388 JLINK_ReadReg(FPS23)  returns 0x00000000 (0000ms, 1486ms total)
T4928 558:388 JLINK_ReadReg(FPS24)  returns 0x00000000 (0000ms, 1486ms total)
T4928 558:388 JLINK_ReadReg(FPS25)  returns 0x00000000 (0000ms, 1486ms total)
T4928 558:388 JLINK_ReadReg(FPS26)  returns 0x00000000 (0000ms, 1486ms total)
T4928 558:388 JLINK_ReadReg(FPS27)  returns 0x00000000 (0000ms, 1486ms total)
T4928 558:388 JLINK_ReadReg(FPS28)  returns 0x00000000 (0000ms, 1486ms total)
T4928 558:388 JLINK_ReadReg(FPS29)  returns 0x00000000 (0000ms, 1486ms total)
T4928 558:388 JLINK_ReadReg(FPS30)  returns 0x00000000 (0000ms, 1486ms total)
T4928 558:388 JLINK_ReadReg(FPS31)  returns 0x00000000 (0000ms, 1486ms total)
T70B4 558:390 JLINK_ReadMemU32(0xE0001004, 0x0001 Items, ...) -- CPU_ReadMem(4 bytes @ 0xE0001004) - Data: E1 19 00 00  returns 0x01 (0001ms, 1487ms total)
T70B4 558:392 JLINK_ReadMemEx(0x40002800, 0x0020 Bytes, ..., Flags = 0x02000004) -- CPU_ReadMem(32 bytes @ 0x40002800) - Data: 02 08 00 00 01 21 00 00 00 00 00 00 27 00 00 00 ...  returns 0x20 (0002ms, 1489ms total)
T70B4 558:394 JLINK_ReadMemEx(0x40002820, 0x0004 Bytes, ..., Flags = 0x02000004) -- CPU_ReadMem(4 bytes @ 0x40002820) - Data: 00 00 00 00  returns 0x04 (0001ms, 1490ms total)
T70B4 558:395 JLINK_ReadMemEx(0x40002828, 0x0004 Bytes, ..., Flags = 0x02000004) -- CPU_ReadMem(4 bytes @ 0x40002828) - Data: 6D 00 00 00  returns 0x04 (0002ms, 1492ms total)
T70B4 558:397 JLINK_ReadMemEx(0x40002830, 0x0018 Bytes, ..., Flags = 0x02000004) -- CPU_ReadMem(24 bytes @ 0x40002830) - Data: 00 00 00 00 00 00 00 00 00 00 00 00 00 00 00 00 ...  returns 0x18 (0002ms, 1494ms total)
T70B4 558:399 JLINK_ReadMemEx(0x40002848, 0x0004 Bytes, ..., Flags = 0x02000004) -- CPU_ReadMem(4 bytes @ 0x40002848) - Data: 00 00 00 00  returns 0x04 (0002ms, 1496ms total)
T70B4 558:401 JLINK_ReadMemEx(0x40002850, 0x004C Bytes, ..., Flags = 0x02000004) -- CPU_ReadMem(76 bytes @ 0x40002850) - Data: 00 00 00 00 00 00 00 00 00 00 00 00 00 00 00 00 ...  returns 0x4C (0003ms, 1499ms total)
T70B4 558:404 JLINK_ReadMemEx(0x4000289C, 0x0004 Bytes, ..., Flags = 0x02000004) -- CPU_ReadMem(4 bytes @ 0x4000289C) - Data: 00 00 00 00  returns 0x04 (0002ms, 1501ms total)
T70B4 558:419 JLINK_ReadMemEx(0x40011000, 0x0018 Bytes, ..., Flags = 0x02000004) -- CPU_ReadMem(24 bytes @ 0x40011000) - Data: 00 00 00 00 00 00 00 00 00 00 00 00 00 00 00 00 ...  returns 0x18 (0002ms, 1503ms total)
T70B4 558:421 JLINK_ReadMemEx(0x40011018, 0x0004 Bytes, ..., Flags = 0x02000004) -- CPU_ReadMem(4 bytes @ 0x40011018) - Data: 00 00 00 00  returns 0x04 (0002ms, 1505ms total)
T70B4 558:426 JLINK_ReadMemEx(0x0800184C, 0x003C Bytes, ..., Flags = 0x02000000) -- CPU_ReadMem(128 bytes @ 0x08001840) -- Updating C cache (128 bytes @ 0x08001840) -- Read from C cache (60 bytes @ 0x0800184C) - Data: 1F B5 17 A0 0F C8 8D E8 0F 00 FE F7 49 FE FF F7 ...  returns 0x3C (0005ms, 1510ms total)
T4928 571:456 JLINK_ReadMemEx(0x0800184C, 0x0002 Bytes, ..., Flags = 0x02000000) -- Read from C cache (2 bytes @ 0x0800184C) - Data: 1F B5  returns 0x02 (0000ms, 1510ms total)
T4928 571:456 JLINK_Step() -- Read from C cache (2 bytes @ 0x0800184C) -- CPU_ReadMem(4 bytes @ 0xE000ED18) -- CPU_WriteMem(4 bytes @ 0xE000ED18) -- CPU_ReadMem(4 bytes @ 0xE000ED18) -- CPU_WriteMem(4 bytes @ 0xE000ED18) -- CPU_WriteMem(24 bytes @ 0x200010E0) -- Simulated  returns 0x00 (0009ms, 1519ms total)
T4928 571:465 JLINK_ReadReg(R15 (PC))  returns 0x0800184E (0000ms, 1519ms total)
T4928 571:465 JLINK_ReadReg(XPSR)  returns 0x61000000 (0000ms, 1519ms total)
T4928 571:465 JLINK_ReadReg(R0)  returns 0x0800184D (0000ms, 1519ms total)
T4928 571:465 JLINK_ReadReg(R1)  returns 0x200010F8 (0000ms, 1519ms total)
T4928 571:465 JLINK_ReadReg(R2)  returns 0x00000000 (0000ms, 1519ms total)
T4928 571:465 JLINK_ReadReg(R3)  returns 0x0800181B (0000ms, 1519ms total)
T4928 571:465 JLINK_ReadReg(R4)  returns 0x080018FC (0000ms, 1519ms total)
T4928 571:465 JLINK_ReadReg(R5)  returns 0x080018FC (0000ms, 1519ms total)
T4928 571:465 JLINK_ReadReg(R6)  returns 0x00000000 (0000ms, 1519ms total)
T4928 571:465 JLINK_ReadReg(R7)  returns 0x00000000 (0000ms, 1519ms total)
T4928 571:465 JLINK_ReadReg(R8)  returns 0x00000000 (0000ms, 1519ms total)
T4928 571:465 JLINK_ReadReg(R9)  returns 0x00000000 (0000ms, 1519ms total)
T4928 571:465 JLINK_ReadReg(R10)  returns 0x00000000 (0000ms, 1519ms total)
T4928 571:465 JLINK_ReadReg(R11)  returns 0x00000000 (0000ms, 1519ms total)
T4928 571:465 JLINK_ReadReg(R12)  returns 0x00000000 (0000ms, 1519ms total)
T4928 571:465 JLINK_ReadReg(R13 (SP))  returns 0x200010E0 (0000ms, 1519ms total)
T4928 571:465 JLINK_ReadReg(R14)  returns 0x080002A1 (0000ms, 1519ms total)
T4928 571:465 JLINK_ReadReg(R15 (PC))  returns 0x0800184E (0000ms, 1519ms total)
T4928 571:465 JLINK_ReadReg(XPSR)  returns 0x61000000 (0000ms, 1519ms total)
T4928 571:465 JLINK_ReadReg(MSP)  returns 0x200010E0 (0000ms, 1519ms total)
T4928 571:465 JLINK_ReadReg(PSP)  returns 0x00000000 (0000ms, 1519ms total)
T4928 571:465 JLINK_ReadReg(CFBP)  returns 0x00000000 (0000ms, 1519ms total)
T4928 571:465 JLINK_ReadReg(FPSCR)  returns 0x00000000 (0000ms, 1519ms total)
T4928 571:465 JLINK_ReadReg(FPS0)  returns 0x00000000 (0000ms, 1519ms total)
T4928 571:465 JLINK_ReadReg(FPS1)  returns 0x00000000 (0000ms, 1519ms total)
T4928 571:465 JLINK_ReadReg(FPS2)  returns 0x00000000 (0000ms, 1519ms total)
T4928 571:465 JLINK_ReadReg(FPS3)  returns 0x00000000 (0000ms, 1519ms total)
T4928 571:465 JLINK_ReadReg(FPS4)  returns 0x00000000 (0000ms, 1519ms total)
T4928 571:465 JLINK_ReadReg(FPS5)  returns 0x00000000 (0000ms, 1519ms total)
T4928 571:465 JLINK_ReadReg(FPS6)  returns 0x00000000 (0000ms, 1519ms total)
T4928 571:465 JLINK_ReadReg(FPS7)  returns 0x00000000 (0000ms, 1519ms total)
T4928 571:465 JLINK_ReadReg(FPS8)  returns 0x00000000 (0000ms, 1519ms total)
T4928 571:465 JLINK_ReadReg(FPS9)  returns 0x00000000 (0000ms, 1519ms total)
T4928 571:465 JLINK_ReadReg(FPS10)  returns 0x00000000 (0000ms, 1519ms total)
T4928 571:465 JLINK_ReadReg(FPS11)  returns 0x00000000 (0000ms, 1519ms total)
T4928 571:465 JLINK_ReadReg(FPS12)  returns 0x00000000 (0000ms, 1519ms total)
T4928 571:465 JLINK_ReadReg(FPS13)  returns 0x00000000 (0000ms, 1519ms total)
T4928 571:465 JLINK_ReadReg(FPS14)  returns 0x00000000 (0000ms, 1519ms total)
T4928 571:465 JLINK_ReadReg(FPS15)  returns 0x00000000 (0000ms, 1519ms total)
T4928 571:465 JLINK_ReadReg(FPS16)  returns 0x00000000 (0000ms, 1519ms total)
T4928 571:465 JLINK_ReadReg(FPS17)  returns 0x00000000 (0000ms, 1519ms total)
T4928 571:465 JLINK_ReadReg(FPS18)  returns 0x00000000 (0000ms, 1519ms total)
T4928 571:465 JLINK_ReadReg(FPS19)  returns 0x00000000 (0000ms, 1519ms total)
T4928 571:465 JLINK_ReadReg(FPS20)  returns 0x00000000 (0000ms, 1519ms total)
T4928 571:466 JLINK_ReadReg(FPS21)  returns 0x00000000 (0000ms, 1520ms total)
T4928 571:466 JLINK_ReadReg(FPS22)  returns 0x00000000 (0000ms, 1520ms total)
T4928 571:466 JLINK_ReadReg(FPS23)  returns 0x00000000 (0000ms, 1520ms total)
T4928 571:466 JLINK_ReadReg(FPS24)  returns 0x00000000 (0000ms, 1520ms total)
T4928 571:466 JLINK_ReadReg(FPS25)  returns 0x00000000 (0000ms, 1520ms total)
T4928 571:466 JLINK_ReadReg(FPS26)  returns 0x00000000 (0000ms, 1520ms total)
T4928 571:466 JLINK_ReadReg(FPS27)  returns 0x00000000 (0000ms, 1520ms total)
T4928 571:466 JLINK_ReadReg(FPS28)  returns 0x00000000 (0000ms, 1520ms total)
T4928 571:466 JLINK_ReadReg(FPS29)  returns 0x00000000 (0000ms, 1520ms total)
T4928 571:466 JLINK_ReadReg(FPS30)  returns 0x00000000 (0000ms, 1520ms total)
T4928 571:466 JLINK_ReadReg(FPS31)  returns 0x00000000 (0000ms, 1520ms total)
T70B4 571:466 JLINK_ReadMemU32(0xE0001004, 0x0001 Items, ...) - Data: E8 19 00 00  returns 0x01 (0000ms, 1520ms total)
T70B4 571:466 JLINK_ReadMemEx(0x40002800, 0x0020 Bytes, ..., Flags = 0x02000004) -- CPU_ReadMem(32 bytes @ 0x40002800) - Data: 07 08 00 00 01 21 00 00 00 00 00 00 27 00 00 00 ...  returns 0x20 (0003ms, 1523ms total)
T70B4 571:469 JLINK_ReadMemEx(0x40002820, 0x0004 Bytes, ..., Flags = 0x02000004) -- CPU_ReadMem(4 bytes @ 0x40002820) - Data: 00 00 00 00  returns 0x04 (0002ms, 1525ms total)
T70B4 571:471 JLINK_ReadMemEx(0x40002828, 0x0004 Bytes, ..., Flags = 0x02000004) -- CPU_ReadMem(4 bytes @ 0x40002828) - Data: 5A 00 00 00  returns 0x04 (0001ms, 1526ms total)
T70B4 571:472 JLINK_ReadMemEx(0x40002830, 0x0018 Bytes, ..., Flags = 0x02000004) -- CPU_ReadMem(24 bytes @ 0x40002830) - Data: 00 00 00 00 00 00 00 00 00 00 00 00 00 00 00 00 ...  returns 0x18 (0002ms, 1528ms total)
T70B4 571:474 JLINK_ReadMemEx(0x40002848, 0x0004 Bytes, ..., Flags = 0x02000004) -- CPU_ReadMem(4 bytes @ 0x40002848) - Data: 00 00 00 00  returns 0x04 (0002ms, 1530ms total)
T70B4 571:476 JLINK_ReadMemEx(0x40002850, 0x004C Bytes, ..., Flags = 0x02000004) -- CPU_ReadMem(76 bytes @ 0x40002850) - Data: 00 00 00 00 00 00 00 00 00 00 00 00 00 00 00 00 ...  returns 0x4C (0004ms, 1534ms total)
T70B4 571:480 JLINK_ReadMemEx(0x4000289C, 0x0004 Bytes, ..., Flags = 0x02000004) -- CPU_ReadMem(4 bytes @ 0x4000289C) - Data: 00 00 00 00  returns 0x04 (0001ms, 1535ms total)
T70B4 571:501 JLINK_ReadMemEx(0x40011000, 0x0018 Bytes, ..., Flags = 0x02000004) -- CPU_ReadMem(24 bytes @ 0x40011000) - Data: 00 00 00 00 00 00 00 00 00 00 00 00 00 00 00 00 ...  returns 0x18 (0004ms, 1539ms total)
T70B4 571:505 JLINK_ReadMemEx(0x40011018, 0x0004 Bytes, ..., Flags = 0x02000004) -- CPU_ReadMem(4 bytes @ 0x40011018) - Data: 00 00 00 00  returns 0x04 (0002ms, 1541ms total)
T4928 572:860 JLINK_ReadMemEx(0x0800184E, 0x0002 Bytes, ..., Flags = 0x02000000) -- Read from C cache (2 bytes @ 0x0800184E) - Data: 17 A0  returns 0x02 (0000ms, 1541ms total)
T4928 572:860 JLINK_ReadMemEx(0x08001850, 0x003C Bytes, ..., Flags = 0x02000000) -- Read from C cache (60 bytes @ 0x08001850) - Data: 0F C8 8D E8 0F 00 FE F7 49 FE FF F7 FD FD FF F7 ...  returns 0x3C (0000ms, 1541ms total)
T4928 572:860 JLINK_ReadMemEx(0x0800184E, 0x0002 Bytes, ..., Flags = 0x02000000) -- Read from C cache (2 bytes @ 0x0800184E) - Data: 17 A0  returns 0x02 (0000ms, 1541ms total)
T4928 572:860 JLINK_Step() -- Read from C cache (2 bytes @ 0x0800184E) -- Simulated  returns 0x00 (0002ms, 1543ms total)
T4928 572:862 JLINK_ReadReg(R15 (PC))  returns 0x08001850 (0000ms, 1543ms total)
T4928 572:862 JLINK_ReadReg(XPSR)  returns 0x61000000 (0000ms, 1543ms total)
T4928 572:862 JLINK_ReadMemEx(0x08001850, 0x003C Bytes, ..., Flags = 0x02000000) -- Read from C cache (60 bytes @ 0x08001850) - Data: 0F C8 8D E8 0F 00 FE F7 49 FE FF F7 FD FD FF F7 ...  returns 0x3C (0000ms, 1543ms total)
T4928 572:862 JLINK_ReadMemEx(0x08001850, 0x0002 Bytes, ..., Flags = 0x02000000) -- Read from C cache (2 bytes @ 0x08001850) - Data: 0F C8  returns 0x02 (0000ms, 1543ms total)
T4928 572:862 JLINK_ReadMemEx(0x08001852, 0x0002 Bytes, ..., Flags = 0x02000000) -- Read from C cache (2 bytes @ 0x08001852) - Data: 8D E8  returns 0x02 (0000ms, 1543ms total)
T4928 572:862 JLINK_Step() -- Read from C cache (2 bytes @ 0x08001850) -- Read from C cache (16 bytes @ 0x080018AC) -- Simulated  returns 0x00 (0000ms, 1543ms total)
T4928 572:862 JLINK_ReadReg(R15 (PC))  returns 0x08001852 (0000ms, 1543ms total)
T4928 572:862 JLINK_ReadReg(XPSR)  returns 0x61000000 (0000ms, 1543ms total)
T4928 572:862 JLINK_ReadMemEx(0x08001852, 0x0002 Bytes, ..., Flags = 0x02000000) -- Read from C cache (2 bytes @ 0x08001852) - Data: 8D E8  returns 0x02 (0000ms, 1543ms total)
T4928 572:862 JLINK_ReadMemEx(0x08001854, 0x003C Bytes, ..., Flags = 0x02000000) -- Read from C cache (60 bytes @ 0x08001854) - Data: 0F 00 FE F7 49 FE FF F7 FD FD FF F7 57 FD FF F7 ...  returns 0x3C (0000ms, 1543ms total)
T4928 572:862 JLINK_ReadMemEx(0x08001854, 0x0002 Bytes, ..., Flags = 0x02000000) -- Read from C cache (2 bytes @ 0x08001854) - Data: 0F 00  returns 0x02 (0000ms, 1543ms total)
T4928 572:862 JLINK_Step() -- Read from C cache (2 bytes @ 0x08001852) -- Read from C cache (2 bytes @ 0x08001854) -- Not simulated -- CPU_WriteMem(4 bytes @ 0xE0002008) -- CPU_WriteMem(4 bytes @ 0xE0001004)  returns 0x00 (0037ms, 1580ms total)
T4928 572:899 JLINK_ReadReg(R15 (PC))  returns 0x08001856 (0000ms, 1580ms total)
T4928 572:899 JLINK_ReadReg(XPSR)  returns 0x61000000 (0000ms, 1580ms total)
T4928 572:899 JLINK_ReadReg(R0)  returns 0x6C6C6548 (0000ms, 1580ms total)
T4928 572:899 JLINK_ReadReg(R1)  returns 0x6F57206F (0000ms, 1580ms total)
T4928 572:899 JLINK_ReadReg(R2)  returns 0x21646C72 (0000ms, 1580ms total)
T4928 572:899 JLINK_ReadReg(R3)  returns 0x000A2121 (0001ms, 1581ms total)
T4928 572:900 JLINK_ReadReg(R4)  returns 0x080018FC (0000ms, 1581ms total)
T4928 572:900 JLINK_ReadReg(R5)  returns 0x080018FC (0000ms, 1581ms total)
T4928 572:900 JLINK_ReadReg(R6)  returns 0x00000000 (0000ms, 1581ms total)
T4928 572:900 JLINK_ReadReg(R7)  returns 0x00000000 (0000ms, 1581ms total)
T4928 572:900 JLINK_ReadReg(R8)  returns 0x00000000 (0000ms, 1581ms total)
T4928 572:900 JLINK_ReadReg(R9)  returns 0x00000000 (0000ms, 1581ms total)
T4928 572:900 JLINK_ReadReg(R10)  returns 0x00000000 (0000ms, 1581ms total)
T4928 572:900 JLINK_ReadReg(R11)  returns 0x00000000 (0000ms, 1581ms total)
T4928 572:900 JLINK_ReadReg(R12)  returns 0x00000000 (0000ms, 1581ms total)
T4928 572:900 JLINK_ReadReg(R13 (SP))  returns 0x200010E0 (0000ms, 1581ms total)
T4928 572:900 JLINK_ReadReg(R14)  returns 0x080002A1 (0000ms, 1581ms total)
T4928 572:900 JLINK_ReadReg(R15 (PC))  returns 0x08001856 (0000ms, 1581ms total)
T4928 572:900 JLINK_ReadReg(XPSR)  returns 0x61000000 (0000ms, 1581ms total)
T4928 572:900 JLINK_ReadReg(MSP)  returns 0x200010E0 (0000ms, 1581ms total)
T4928 572:900 JLINK_ReadReg(PSP)  returns 0x00000000 (0000ms, 1581ms total)
T4928 572:900 JLINK_ReadReg(CFBP)  returns 0x00000000 (0000ms, 1581ms total)
T4928 572:900 JLINK_ReadReg(FPSCR)  returns 0x00000000 (0037ms, 1618ms total)
T4928 572:937 JLINK_ReadReg(FPS0)  returns 0x00000000 (0000ms, 1618ms total)
T4928 572:937 JLINK_ReadReg(FPS1)  returns 0x00000000 (0000ms, 1618ms total)
T4928 572:937 JLINK_ReadReg(FPS2)  returns 0x00000000 (0000ms, 1618ms total)
T4928 572:937 JLINK_ReadReg(FPS3)  returns 0x00000000 (0000ms, 1618ms total)
T4928 572:937 JLINK_ReadReg(FPS4)  returns 0x00000000 (0000ms, 1618ms total)
T4928 572:937 JLINK_ReadReg(FPS5)  returns 0x00000000 (0000ms, 1618ms total)
T4928 572:937 JLINK_ReadReg(FPS6)  returns 0x00000000 (0000ms, 1618ms total)
T4928 572:937 JLINK_ReadReg(FPS7)  returns 0x00000000 (0000ms, 1618ms total)
T4928 572:937 JLINK_ReadReg(FPS8)  returns 0x00000000 (0000ms, 1618ms total)
T4928 572:937 JLINK_ReadReg(FPS9)  returns 0x00000000 (0000ms, 1618ms total)
T4928 572:937 JLINK_ReadReg(FPS10)  returns 0x00000000 (0000ms, 1618ms total)
T4928 572:937 JLINK_ReadReg(FPS11)  returns 0x00000000 (0000ms, 1618ms total)
T4928 572:937 JLINK_ReadReg(FPS12)  returns 0x00000000 (0000ms, 1618ms total)
T4928 572:937 JLINK_ReadReg(FPS13)  returns 0x00000000 (0000ms, 1618ms total)
T4928 572:937 JLINK_ReadReg(FPS14)  returns 0x00000000 (0000ms, 1618ms total)
T4928 572:937 JLINK_ReadReg(FPS15)  returns 0x00000000 (0000ms, 1618ms total)
T4928 572:937 JLINK_ReadReg(FPS16)  returns 0x00000000 (0000ms, 1618ms total)
T4928 572:937 JLINK_ReadReg(FPS17)  returns 0x00000000 (0000ms, 1618ms total)
T4928 572:937 JLINK_ReadReg(FPS18)  returns 0x00000000 (0000ms, 1618ms total)
T4928 572:937 JLINK_ReadReg(FPS19)  returns 0x00000000 (0000ms, 1618ms total)
T4928 572:937 JLINK_ReadReg(FPS20)  returns 0x00000000 (0000ms, 1618ms total)
T4928 572:937 JLINK_ReadReg(FPS21)  returns 0x00000000 (0000ms, 1618ms total)
T4928 572:937 JLINK_ReadReg(FPS22)  returns 0x00000000 (0000ms, 1618ms total)
T4928 572:937 JLINK_ReadReg(FPS23)  returns 0x00000000 (0000ms, 1618ms total)
T4928 572:937 JLINK_ReadReg(FPS24)  returns 0x00000000 (0000ms, 1618ms total)
T4928 572:937 JLINK_ReadReg(FPS25)  returns 0x00000000 (0000ms, 1618ms total)
T4928 572:937 JLINK_ReadReg(FPS26)  returns 0x00000000 (0000ms, 1618ms total)
T4928 572:937 JLINK_ReadReg(FPS27)  returns 0x00000000 (0000ms, 1618ms total)
T4928 572:937 JLINK_ReadReg(FPS28)  returns 0x00000000 (0000ms, 1618ms total)
T4928 572:937 JLINK_ReadReg(FPS29)  returns 0x00000000 (0000ms, 1618ms total)
T4928 572:937 JLINK_ReadReg(FPS30)  returns 0x00000000 (0001ms, 1619ms total)
T4928 572:938 JLINK_ReadReg(FPS31)  returns 0x00000000 (0000ms, 1619ms total)
T70B4 572:938 JLINK_ReadMemU32(0xE0001004, 0x0001 Items, ...) -- CPU_ReadMem(4 bytes @ 0xE0001004) - Data: F4 19 00 00  returns 0x01 (0001ms, 1620ms total)
T70B4 572:939 JLINK_ReadMemEx(0x40002800, 0x0020 Bytes, ..., Flags = 0x02000004) -- CPU_ReadMem(32 bytes @ 0x40002800) - Data: 20 08 00 00 01 21 00 00 00 00 00 00 27 00 00 00 ...  returns 0x20 (0003ms, 1623ms total)
T70B4 572:942 JLINK_ReadMemEx(0x40002820, 0x0004 Bytes, ..., Flags = 0x02000004) -- CPU_ReadMem(4 bytes @ 0x40002820) - Data: 00 00 00 00  returns 0x04 (0002ms, 1625ms total)
T70B4 572:944 JLINK_ReadMemEx(0x40002828, 0x0004 Bytes, ..., Flags = 0x02000004) -- CPU_ReadMem(4 bytes @ 0x40002828) - Data: E1 00 00 00  returns 0x04 (0002ms, 1627ms total)
T70B4 572:946 JLINK_ReadMemEx(0x40002830, 0x0018 Bytes, ..., Flags = 0x02000004) -- CPU_ReadMem(24 bytes @ 0x40002830) - Data: 00 00 00 00 00 00 00 00 00 00 00 00 00 00 00 00 ...  returns 0x18 (0002ms, 1629ms total)
T70B4 572:948 JLINK_ReadMemEx(0x40002848, 0x0004 Bytes, ..., Flags = 0x02000004) -- CPU_ReadMem(4 bytes @ 0x40002848) - Data: 00 00 00 00  returns 0x04 (0002ms, 1631ms total)
T70B4 572:950 JLINK_ReadMemEx(0x40002850, 0x004C Bytes, ..., Flags = 0x02000004) -- CPU_ReadMem(76 bytes @ 0x40002850) - Data: 00 00 00 00 00 00 00 00 00 00 00 00 00 00 00 00 ...  returns 0x4C (0004ms, 1635ms total)
T70B4 572:954 JLINK_ReadMemEx(0x4000289C, 0x0004 Bytes, ..., Flags = 0x02000004) -- CPU_ReadMem(4 bytes @ 0x4000289C) - Data: 00 00 00 00  returns 0x04 (0002ms, 1637ms total)
T70B4 572:975 JLINK_ReadMemEx(0x40011000, 0x0018 Bytes, ..., Flags = 0x02000004) -- CPU_ReadMem(24 bytes @ 0x40011000) - Data: 00 00 00 00 00 00 00 00 00 00 00 00 00 00 00 00 ...  returns 0x18 (0004ms, 1641ms total)
T70B4 572:979 JLINK_ReadMemEx(0x40011018, 0x0004 Bytes, ..., Flags = 0x02000004) -- CPU_ReadMem(4 bytes @ 0x40011018) - Data: 00 00 00 00  returns 0x04 (0001ms, 1642ms total)
T4928 581:924 JLINK_ReadMemEx(0x08001856, 0x0002 Bytes, ..., Flags = 0x02000000) -- CPU_ReadMem(64 bytes @ 0x08001840) -- Updating C cache (64 bytes @ 0x08001840) -- Read from C cache (2 bytes @ 0x08001856) - Data: FE F7  returns 0x02 (0003ms, 1645ms total)
T4928 581:927 JLINK_ReadMemEx(0x08001858, 0x003C Bytes, ..., Flags = 0x02000000) -- CPU_ReadMem(64 bytes @ 0x08001880) -- Updating C cache (64 bytes @ 0x08001880) -- Read from C cache (60 bytes @ 0x08001858) - Data: 49 FE FF F7 FD FD FF F7 57 FD FF F7 7B FD FF F7 ...  returns 0x3C (0004ms, 1649ms total)
T4928 581:931 JLINK_ReadMemEx(0x08001856, 0x0002 Bytes, ..., Flags = 0x02000000) -- Read from C cache (2 bytes @ 0x08001856) - Data: FE F7  returns 0x02 (0000ms, 1649ms total)
T4928 581:931 JLINK_SetBPEx(Addr = 0x0800185A, Type = 0xFFFFFFF2)  returns 0x00000002 (0000ms, 1649ms total)
T4928 581:931 JLINK_Go() -- CPU_WriteMem(4 bytes @ 0xE0002000) -- CPU_ReadMem(4 bytes @ 0xE0001000) -- CPU_WriteMem(4 bytes @ 0xE0002008) (0009ms, 1658ms total)
T4928 582:040 JLINK_IsHalted()  returns TRUE (0023ms, 1681ms total)
T4928 582:065 JLINK_Halt()  returns 0x00 (0000ms, 1658ms total)
T4928 582:065 JLINK_IsHalted()  returns TRUE (0000ms, 1658ms total)
T4928 582:065 JLINK_IsHalted()  returns TRUE (0000ms, 1658ms total)
T4928 582:065 JLINK_IsHalted()  returns TRUE (0000ms, 1658ms total)
T4928 582:065 JLINK_ReadReg(R15 (PC))  returns 0x0800185A (0000ms, 1658ms total)
T4928 582:065 JLINK_ReadReg(XPSR)  returns 0x61000000 (0000ms, 1658ms total)
T4928 582:065 JLINK_ClrBPEx(BPHandle = 0x00000002)  returns 0x00 (0000ms, 1658ms total)
T4928 582:065 JLINK_ReadMemU32(0xE000ED30, 0x0001 Items, ...) -- CPU_ReadMem(4 bytes @ 0xE000ED30) - Data: 02 00 00 00  returns 0x01 (0002ms, 1660ms total)
T4928 582:067 JLINK_ReadMemU32(0xE0001028, 0x0001 Items, ...) -- CPU_ReadMem(4 bytes @ 0xE0001028) - Data: 00 00 00 00  returns 0x01 (0003ms, 1663ms total)
T4928 582:070 JLINK_ReadMemU32(0xE0001038, 0x0001 Items, ...) -- CPU_ReadMem(4 bytes @ 0xE0001038) - Data: 00 02 00 00  returns 0x01 (0003ms, 1666ms total)
T4928 582:073 JLINK_ReadMemU32(0xE0001048, 0x0001 Items, ...) -- CPU_ReadMem(4 bytes @ 0xE0001048) - Data: 00 00 00 00  returns 0x01 (0000ms, 1666ms total)
T4928 582:073 JLINK_ReadMemU32(0xE0001058, 0x0001 Items, ...) -- CPU_ReadMem(4 bytes @ 0xE0001058) - Data: 00 00 00 00  returns 0x01 (0002ms, 1668ms total)
T4928 582:075 JLINK_ReadReg(R0)  returns 0x00000000 (0000ms, 1668ms total)
T4928 582:075 JLINK_ReadReg(R1)  returns 0x10000000 (0000ms, 1668ms total)
T4928 582:075 JLINK_ReadReg(R2)  returns 0x00000000 (0000ms, 1668ms total)
T4928 582:075 JLINK_ReadReg(R3)  returns 0x10000000 (0000ms, 1668ms total)
T4928 582:075 JLINK_ReadReg(R4)  returns 0x080018FC (0000ms, 1668ms total)
T4928 582:075 JLINK_ReadReg(R5)  returns 0x080018FC (0000ms, 1668ms total)
T4928 582:075 JLINK_ReadReg(R6)  returns 0x00000000 (0000ms, 1668ms total)
T4928 582:075 JLINK_ReadReg(R7)  returns 0x00000000 (0000ms, 1668ms total)
T4928 582:075 JLINK_ReadReg(R8)  returns 0x00000000 (0000ms, 1668ms total)
T4928 582:075 JLINK_ReadReg(R9)  returns 0x00000000 (0000ms, 1668ms total)
T4928 582:075 JLINK_ReadReg(R10)  returns 0x00000000 (0000ms, 1668ms total)
T4928 582:075 JLINK_ReadReg(R11)  returns 0x00000000 (0000ms, 1668ms total)
T4928 582:075 JLINK_ReadReg(R12)  returns 0x00000000 (0000ms, 1668ms total)
T4928 582:075 JLINK_ReadReg(R13 (SP))  returns 0x200010E0 (0001ms, 1669ms total)
T4928 582:076 JLINK_ReadReg(R14)  returns 0x08000519 (0000ms, 1669ms total)
T4928 582:076 JLINK_ReadReg(R15 (PC))  returns 0x0800185A (0000ms, 1669ms total)
T4928 582:076 JLINK_ReadReg(XPSR)  returns 0x61000000 (0000ms, 1669ms total)
T4928 582:076 JLINK_ReadReg(MSP)  returns 0x200010E0 (0000ms, 1669ms total)
T4928 582:076 JLINK_ReadReg(PSP)  returns 0x00000000 (0000ms, 1669ms total)
T4928 582:076 JLINK_ReadReg(CFBP)  returns 0x00000000 (0000ms, 1669ms total)
T4928 582:076 JLINK_ReadReg(FPSCR)  returns 0x00000000 (0038ms, 1707ms total)
T4928 582:114 JLINK_ReadReg(FPS0)  returns 0x00000000 (0000ms, 1707ms total)
T4928 582:114 JLINK_ReadReg(FPS1)  returns 0x00000000 (0000ms, 1707ms total)
T4928 582:114 JLINK_ReadReg(FPS2)  returns 0x00000000 (0000ms, 1707ms total)
T4928 582:114 JLINK_ReadReg(FPS3)  returns 0x00000000 (0000ms, 1707ms total)
T4928 582:114 JLINK_ReadReg(FPS4)  returns 0x00000000 (0000ms, 1707ms total)
T4928 582:114 JLINK_ReadReg(FPS5)  returns 0x00000000 (0000ms, 1707ms total)
T4928 582:114 JLINK_ReadReg(FPS6)  returns 0x00000000 (0000ms, 1707ms total)
T4928 582:114 JLINK_ReadReg(FPS7)  returns 0x00000000 (0000ms, 1707ms total)
T4928 582:114 JLINK_ReadReg(FPS8)  returns 0x00000000 (0000ms, 1707ms total)
T4928 582:114 JLINK_ReadReg(FPS9)  returns 0x00000000 (0000ms, 1707ms total)
T4928 582:114 JLINK_ReadReg(FPS10)  returns 0x00000000 (0000ms, 1707ms total)
T4928 582:114 JLINK_ReadReg(FPS11)  returns 0x00000000 (0000ms, 1707ms total)
T4928 582:114 JLINK_ReadReg(FPS12)  returns 0x00000000 (0000ms, 1707ms total)
T4928 582:114 JLINK_ReadReg(FPS13)  returns 0x00000000 (0000ms, 1707ms total)
T4928 582:114 JLINK_ReadReg(FPS14)  returns 0x00000000 (0000ms, 1707ms total)
T4928 582:114 JLINK_ReadReg(FPS15)  returns 0x00000000 (0000ms, 1707ms total)
T4928 582:114 JLINK_ReadReg(FPS16)  returns 0x00000000 (0000ms, 1707ms total)
T4928 582:114 JLINK_ReadReg(FPS17)  returns 0x00000000 (0000ms, 1707ms total)
T4928 582:114 JLINK_ReadReg(FPS18)  returns 0x00000000 (0001ms, 1708ms total)
T4928 582:115 JLINK_ReadReg(FPS19)  returns 0x00000000 (0000ms, 1708ms total)
T4928 582:115 JLINK_ReadReg(FPS20)  returns 0x00000000 (0000ms, 1708ms total)
T4928 582:115 JLINK_ReadReg(FPS21)  returns 0x00000000 (0000ms, 1708ms total)
T4928 582:115 JLINK_ReadReg(FPS22)  returns 0x00000000 (0000ms, 1708ms total)
T4928 582:115 JLINK_ReadReg(FPS23)  returns 0x00000000 (0000ms, 1708ms total)
T4928 582:115 JLINK_ReadReg(FPS24)  returns 0x00000000 (0000ms, 1708ms total)
T4928 582:115 JLINK_ReadReg(FPS25)  returns 0x00000000 (0000ms, 1708ms total)
T4928 582:115 JLINK_ReadReg(FPS26)  returns 0x00000000 (0000ms, 1708ms total)
T4928 582:115 JLINK_ReadReg(FPS27)  returns 0x00000000 (0000ms, 1708ms total)
T4928 582:115 JLINK_ReadReg(FPS28)  returns 0x00000000 (0000ms, 1708ms total)
T4928 582:115 JLINK_ReadReg(FPS29)  returns 0x00000000 (0000ms, 1708ms total)
T4928 582:115 JLINK_ReadReg(FPS30)  returns 0x00000000 (0000ms, 1708ms total)
T4928 582:115 JLINK_ReadReg(FPS31)  returns 0x00000000 (0000ms, 1708ms total)
T70B4 582:115 JLINK_ReadMemU32(0xE0001004, 0x0001 Items, ...) -- CPU_ReadMem(4 bytes @ 0xE0001004) - Data: DF 1A 00 00  returns 0x01 (0002ms, 1710ms total)
T70B4 582:117 JLINK_ReadMemEx(0x40002800, 0x0020 Bytes, ..., Flags = 0x02000004) -- CPU_ReadMem(32 bytes @ 0x40002800) - Data: 22 08 00 00 01 21 00 00 00 00 00 00 27 00 00 00 ...  returns 0x20 (0003ms, 1713ms total)
T70B4 582:120 JLINK_ReadMemEx(0x40002820, 0x0004 Bytes, ..., Flags = 0x02000004) -- CPU_ReadMem(4 bytes @ 0x40002820) - Data: 00 00 00 00  returns 0x04 (0001ms, 1714ms total)
T70B4 582:122 JLINK_ReadMemEx(0x40002828, 0x0004 Bytes, ..., Flags = 0x02000004) -- CPU_ReadMem(4 bytes @ 0x40002828) - Data: B3 00 00 00  returns 0x04 (0001ms, 1715ms total)
T70B4 582:123 JLINK_ReadMemEx(0x40002830, 0x0018 Bytes, ..., Flags = 0x02000004) -- CPU_ReadMem(24 bytes @ 0x40002830) - Data: 00 00 00 00 00 00 00 00 00 00 00 00 00 00 00 00 ...  returns 0x18 (0002ms, 1717ms total)
T70B4 582:125 JLINK_ReadMemEx(0x40002848, 0x0004 Bytes, ..., Flags = 0x02000004) -- CPU_ReadMem(4 bytes @ 0x40002848) - Data: 00 00 00 00  returns 0x04 (0002ms, 1719ms total)
T70B4 582:127 JLINK_ReadMemEx(0x40002850, 0x004C Bytes, ..., Flags = 0x02000004) -- CPU_ReadMem(76 bytes @ 0x40002850) - Data: 00 00 00 00 00 00 00 00 00 00 00 00 00 00 00 00 ...  returns 0x4C (0004ms, 1723ms total)
T70B4 582:131 JLINK_ReadMemEx(0x4000289C, 0x0004 Bytes, ..., Flags = 0x02000004) -- CPU_ReadMem(4 bytes @ 0x4000289C) - Data: 00 00 00 00  returns 0x04 (0002ms, 1725ms total)
T70B4 582:157 JLINK_ReadMemEx(0x40011000, 0x0018 Bytes, ..., Flags = 0x02000004) -- CPU_ReadMem(24 bytes @ 0x40011000) - Data: 00 00 00 00 00 00 00 00 00 00 00 00 00 00 00 00 ...  returns 0x18 (0002ms, 1727ms total)
T70B4 582:159 JLINK_ReadMemEx(0x40011018, 0x0004 Bytes, ..., Flags = 0x02000004) -- CPU_ReadMem(4 bytes @ 0x40011018) - Data: 00 00 00 00  returns 0x04 (0002ms, 1729ms total)
T4928 582:723 JLINK_ReadMemEx(0x0800185A, 0x0002 Bytes, ..., Flags = 0x02000000) -- CPU_ReadMem(64 bytes @ 0x08001840) -- Updating C cache (64 bytes @ 0x08001840) -- Read from C cache (2 bytes @ 0x0800185A) - Data: FF F7  returns 0x02 (0003ms, 1732ms total)
T4928 582:726 JLINK_ReadMemEx(0x0800185C, 0x003C Bytes, ..., Flags = 0x02000000) -- CPU_ReadMem(64 bytes @ 0x08001880) -- Updating C cache (64 bytes @ 0x08001880) -- Read from C cache (60 bytes @ 0x0800185C) - Data: FD FD FF F7 57 FD FF F7 7B FD FF F7 AF FD 15 48 ...  returns 0x3C (0004ms, 1736ms total)
T4928 582:730 JLINK_ReadMemEx(0x0800185A, 0x0002 Bytes, ..., Flags = 0x02000000) -- Read from C cache (2 bytes @ 0x0800185A) - Data: FF F7  returns 0x02 (0000ms, 1736ms total)
T4928 582:730 JLINK_SetBPEx(Addr = 0x0800185E, Type = 0xFFFFFFF2)  returns 0x00000003 (0000ms, 1736ms total)
T4928 582:730 JLINK_Go() -- CPU_WriteMem(4 bytes @ 0xE0002000) -- CPU_ReadMem(4 bytes @ 0xE0001000) -- CPU_WriteMem(4 bytes @ 0xE0002008) (0008ms, 1744ms total)
T4928 582:839 JLINK_IsHalted()  returns TRUE (0022ms, 1766ms total)
T4928 582:861 JLINK_Halt()  returns 0x00 (0000ms, 1744ms total)
T4928 582:861 JLINK_IsHalted()  returns TRUE (0000ms, 1744ms total)
T4928 582:862 JLINK_IsHalted()  returns TRUE (0000ms, 1744ms total)
T4928 582:862 JLINK_IsHalted()  returns TRUE (0000ms, 1744ms total)
T4928 582:862 JLINK_ReadReg(R15 (PC))  returns 0x0800185E (0000ms, 1744ms total)
T4928 582:862 JLINK_ReadReg(XPSR)  returns 0x41000000 (0000ms, 1744ms total)
T4928 582:862 JLINK_ClrBPEx(BPHandle = 0x00000003)  returns 0x00 (0000ms, 1744ms total)
T4928 582:862 JLINK_ReadMemU32(0xE000ED30, 0x0001 Items, ...) -- CPU_ReadMem(4 bytes @ 0xE000ED30) - Data: 02 00 00 00  returns 0x01 (0002ms, 1746ms total)
T4928 582:864 JLINK_ReadMemU32(0xE0001028, 0x0001 Items, ...) -- CPU_ReadMem(4 bytes @ 0xE0001028) - Data: 00 00 00 00  returns 0x01 (0002ms, 1748ms total)
T4928 582:866 JLINK_ReadMemU32(0xE0001038, 0x0001 Items, ...) -- CPU_ReadMem(4 bytes @ 0xE0001038) - Data: 00 02 00 00  returns 0x01 (0002ms, 1750ms total)
T4928 582:868 JLINK_ReadMemU32(0xE0001048, 0x0001 Items, ...) -- CPU_ReadMem(4 bytes @ 0xE0001048) - Data: 00 00 00 00  returns 0x01 (0002ms, 1752ms total)
T4928 582:870 JLINK_ReadMemU32(0xE0001058, 0x0001 Items, ...) -- CPU_ReadMem(4 bytes @ 0xE0001058) - Data: 00 00 00 00  returns 0x01 (0002ms, 1754ms total)
T4928 582:872 JLINK_ReadReg(R0)  returns 0x00000000 (0000ms, 1754ms total)
T4928 582:872 JLINK_ReadReg(R1)  returns 0x00000100 (0000ms, 1754ms total)
T4928 582:872 JLINK_ReadReg(R2)  returns 0x00000001 (0000ms, 1754ms total)
T4928 582:872 JLINK_ReadReg(R3)  returns 0x10000000 (0000ms, 1754ms total)
T4928 582:872 JLINK_ReadReg(R4)  returns 0x080018FC (0000ms, 1754ms total)
T4928 582:872 JLINK_ReadReg(R5)  returns 0x080018FC (0000ms, 1754ms total)
T4928 582:872 JLINK_ReadReg(R6)  returns 0x00000000 (0000ms, 1754ms total)
T4928 582:872 JLINK_ReadReg(R7)  returns 0x00000000 (0000ms, 1754ms total)
T4928 582:872 JLINK_ReadReg(R8)  returns 0x00000000 (0000ms, 1754ms total)
T4928 582:872 JLINK_ReadReg(R9)  returns 0x00000000 (0000ms, 1754ms total)
T4928 582:872 JLINK_ReadReg(R10)  returns 0x00000000 (0000ms, 1754ms total)
T4928 582:872 JLINK_ReadReg(R11)  returns 0x00000000 (0000ms, 1754ms total)
T4928 582:872 JLINK_ReadReg(R12)  returns 0x00000000 (0000ms, 1754ms total)
T4928 582:872 JLINK_ReadReg(R13 (SP))  returns 0x200010E0 (0000ms, 1754ms total)
T4928 582:872 JLINK_ReadReg(R14)  returns 0x080006A1 (0000ms, 1754ms total)
T4928 582:872 JLINK_ReadReg(R15 (PC))  returns 0x0800185E (0000ms, 1754ms total)
T4928 582:872 JLINK_ReadReg(XPSR)  returns 0x41000000 (0000ms, 1754ms total)
T4928 582:872 JLINK_ReadReg(MSP)  returns 0x200010E0 (0000ms, 1754ms total)
T4928 582:872 JLINK_ReadReg(PSP)  returns 0x00000000 (0000ms, 1754ms total)
T4928 582:872 JLINK_ReadReg(CFBP)  returns 0x00000000 (0000ms, 1754ms total)
T4928 582:872 JLINK_ReadReg(FPSCR)  returns 0x00000000 (0038ms, 1792ms total)
T4928 582:910 JLINK_ReadReg(FPS0)  returns 0x00000000 (0000ms, 1792ms total)
T4928 582:910 JLINK_ReadReg(FPS1)  returns 0x00000000 (0000ms, 1792ms total)
T4928 582:910 JLINK_ReadReg(FPS2)  returns 0x00000000 (0000ms, 1792ms total)
T4928 582:910 JLINK_ReadReg(FPS3)  returns 0x00000000 (0000ms, 1792ms total)
T4928 582:910 JLINK_ReadReg(FPS4)  returns 0x00000000 (0000ms, 1792ms total)
T4928 582:910 JLINK_ReadReg(FPS5)  returns 0x00000000 (0000ms, 1792ms total)
T4928 582:910 JLINK_ReadReg(FPS6)  returns 0x00000000 (0000ms, 1792ms total)
T4928 582:910 JLINK_ReadReg(FPS7)  returns 0x00000000 (0000ms, 1792ms total)
T4928 582:910 JLINK_ReadReg(FPS8)  returns 0x00000000 (0000ms, 1792ms total)
T4928 582:910 JLINK_ReadReg(FPS9)  returns 0x00000000 (0000ms, 1792ms total)
T4928 582:910 JLINK_ReadReg(FPS10)  returns 0x00000000 (0000ms, 1792ms total)
T4928 582:910 JLINK_ReadReg(FPS11)  returns 0x00000000 (0000ms, 1792ms total)
T4928 582:910 JLINK_ReadReg(FPS12)  returns 0x00000000 (0000ms, 1792ms total)
T4928 582:910 JLINK_ReadReg(FPS13)  returns 0x00000000 (0000ms, 1792ms total)
T4928 582:910 JLINK_ReadReg(FPS14)  returns 0x00000000 (0000ms, 1792ms total)
T4928 582:910 JLINK_ReadReg(FPS15)  returns 0x00000000 (0000ms, 1792ms total)
T4928 582:910 JLINK_ReadReg(FPS16)  returns 0x00000000 (0000ms, 1792ms total)
T4928 582:910 JLINK_ReadReg(FPS17)  returns 0x00000000 (0000ms, 1792ms total)
